
T1258 000:073 SEGGER J-Link V4.58a Log File (0001ms, 0074ms total)
T1258 000:073 DLL Compiled: Dec  5 2012 18:38:08 (0001ms, 0074ms total)
T1258 000:073 Logging started @ 2019-08-03 16:02 (0001ms, 0074ms total)
T1258 000:074 JLINK_SetWarnOutHandler(...) (0000ms, 0074ms total)
T1258 000:074 JLINK_OpenEx(...)
Firmware: J-Link ARM V8 compiled Nov 28 2014 13:44:46
Hardware: V8.00
S/N: 17935099
Feature(s): RDI,FlashDL,FlashBP,JFlash  returns O.K. (0025ms, 0099ms total)
T1258 000:099 JLINK_SetErrorOutHandler(...) (0000ms, 0099ms total)
T1258 000:099 JLINK_ExecCommand("ProjectFile = "F:\ÑªÇò_ÖÓ¹¤\CX-2000_yaolan\BC\workspace\prj\JLinkSettings.ini"", ...)  returns 0x00 (0000ms, 0099ms total)
T1258 000:104 JLINK_ExecCommand("Device = STM32F407ZE", ...)
                JLINK_ExecCommand("map ram 0x20000000 - 0x2001FFFF", ...)  returns 0x00 (0000ms, 0000ms total)
                JLINK_AddMirrorAreaEx(Addr = 0x00000000, Size = 0x00000000) (0000ms, 0000ms total)
              Device "STM32F407ZE" selected (512 KB flash, 128 KB RAM).  returns 0x00 (0005ms, 0104ms total)
T1258 000:109 JLINK_ExecCommand("DisableConnectionTimeout", ...)  returns 0x00 (0000ms, 0104ms total)
T1258 000:109 JLINK_GetHardwareVersion()  returns 0x13880 (0000ms, 0104ms total)
T1258 000:109 JLINK_GetDLLVersion()  returns 45801 (0000ms, 0104ms total)
T1258 000:109 JLINK_GetFirmwareString(...) (0000ms, 0104ms total)
T1258 000:120 JLINK_GetDLLVersion()  returns 45801 (0000ms, 0104ms total)
T1258 000:120 JLINK_GetCompileDateTime() (0000ms, 0104ms total)
T1258 000:123 JLINK_GetFirmwareString(...) (0000ms, 0104ms total)
T1258 000:127 JLINK_GetHardwareVersion()  returns 0x13880 (0000ms, 0104ms total)
T1258 000:139 JLINK_TIF_Select(JLINKARM_TIF_SWD)  returns 0x00 (0006ms, 0110ms total)
T1258 000:145 JLINK_SetSpeed(100) (0001ms, 0111ms total)
T1258 000:146 JLINK_GetId() >0x108 TIF>Found SWD-DP with ID 0x2BA01477 >0x0D TIF> >0x28 TIF> >0x0D TIF> >0x28 TIF> >0x0D TIF> >0x21 TIF> >0x0D TIF> >0x28 TIF> >0x0D TIF> >0x28 TIF> >0x0D TIF> >0x28 TIF> >0x0D TIF> >0x21 TIF> >0x0D TIF> >0x21 TIF> >0x0D TIF> >0x28 TIF> >0x0D TIF> >0x21 TIF> >0x0D TIF> >0x21 TIF> >0x0D TIF> >0x28 TIF> >0x0D TIF> >0x28 TIF> >0x0D TIF> >0x28 TIF> >0x0D TIF> >0x21 TIF> >0x0D TIF> >0x21 TIF> >0x0D TIF> >0x28 TIF> >0x0D TIF> >0x28 TIF> >0x108 TIF>Found SWD-DP with ID 0x2BA01477
 >0x0D TIF> >0x21 TIF> >0x0D TIF> >0x28 TIF> >0x0D TIF> >0x28 TIF> >0x0D TIF> >0x21 TIF> >0x0D TIF> >0x21 TIF> >0x0D TIF> >0x28 TIF> >0x0D TIF> >0x21 TIF> >0x0D TIF> >0x21 TIF> >0x0D TIF> >0x21 TIF> >0x0D TIF> >0x21 TIF> >0x0D TIF> >0x21 TIF> >0x0D TIF> >0x28 TIF> >0x0D TIF> >0x28 TIF> >0x0D TIF> >0x21 TIF> >0x0D TIF> >0x21 TIF> >0x0D TIF> >0x28 TIF> >0x0D TIF> >0x21 TIF> >0x0D TIF> >0x21 TIF> >0x0D TIF> >0x28 TIF> >0x0D TIF> >0x28 TIF> >0x0D TIF> >0x28 TIF> >0x0D TIF> >0x21 TIF> >0x0D TIF> >0x21 TIF>
 >0x0D TIF> >0x28 TIF> >0x0D TIF> >0x28 TIF> >0x0D TIF> >0x28 TIF> >0x0D TIF> >0x28 TIF> >0x0D TIF> >0x28 TIF> >0x0D TIF> >0x21 TIF> >0x0D TIF> >0x21 TIF> >0x0D TIF> >0x21 TIF>TPIU fitted.ETM fitted. >0x0D TIF> >0x28 TIF> >0x0D TIF> >0x21 TIF> >0x0D TIF> >0x21 TIF> >0x0D TIF> >0x28 TIF> >0x0D TIF> >0x21 TIF> >0x0D TIF> >0x21 TIF>FPUnit: 6 code (BP) slots and 2 literal slots >0x0D TIF> >0x28 TIF> >0x0D TIF> >0x21 TIF> >0x0D TIF> >0x21 TIF> >0x0D TIF> >0x28 TIF> >0x0D TIF> >0x28 TIF> >0x0D TIF> >0x28 TIF>
 >0x0D TIF> >0x21 TIF> >0x0D TIF> >0x21 TIF> >0x0D TIF> >0x28 TIF> >0x0D TIF> >0x21 TIF> >0x0D TIF> >0x21 TIF> >0x0D TIF> >0x28 TIF> >0x0D TIF> >0x21 TIF> >0x0D TIF> >0x21 TIF>Found Cortex-M4 r0p1, Little endian. >0x0D TIF> >0x21 TIF>  returns 0x2BA01477 (0216ms, 0327ms total)
T1258 000:362 JLINK_GetDeviceFamily()  returns 14 (0000ms, 0327ms total)
T1258 000:369 JLINK_ReadMem (0xE00FFFF0, 0x0010 Bytes, ...) -- CPU is running -- CPU_ReadMem(16 bytes @ 0xE00FFFF0) -- Data:  0D 00 00 00 10 00 00 00 05 00 00 00 B1 00 00 00  returns 0x00 (0009ms, 0336ms total)
T1258 000:378 JLINK_ReadMem (0xE00FFFD0, 0x0020 Bytes, ...) -- CPU is running -- CPU_ReadMem(32 bytes @ 0xE00FFFD0) -- Data:  00 00 00 00 00 00 00 00 00 00 00 00 00 00 00 00 ...  returns 0x00 (0009ms, 0345ms total)
T1258 000:387 JLINK_ReadMem (0xE00FF000, 0x0018 Bytes, ...) -- CPU is running -- CPU_ReadMem(24 bytes @ 0xE00FF000) -- Data:  03 F0 F0 FF 03 20 F0 FF 03 30 F0 FF 03 10 F0 FF ...  returns 0x00 (0009ms, 0354ms total)
T1258 000:396 JLINK_ReadMemU32(0xE000ED00, 0x0001 Items, ...) -- CPU is running -- CPU_ReadMem(4 bytes @ 0xE000ED00) -- Data:  41 C2 0F 41  returns 0x01 (0007ms, 0361ms total)
T1258 000:403 JLINK_ReadMemU32(0xE000EF40, 0x0001 Items, ...) -- CPU is running -- CPU_ReadMem(4 bytes @ 0xE000EF40) -- Data:  21 00 11 10  returns 0x01 (0007ms, 0368ms total)
T1258 000:410 JLINK_ReadMemU32(0xE000EF44, 0x0001 Items, ...) -- CPU is running -- CPU_ReadMem(4 bytes @ 0xE000EF44) -- Data:  11 00 00 11  returns 0x01 (0006ms, 0374ms total)
T1258 000:416 JLINK_SetResetType(JLINKARM_RESET_TYPE_NORMAL)  returns JLINKARM_RESET_TYPE_NORMAL (0000ms, 0374ms total)
T1258 000:416 JLINK_Reset() -- CPU is running -- CPU_WriteMem(4 bytes @ 0xE000EDF0) -- CPU is running -- CPU_WriteMem(4 bytes @ 0xE000EDFC) >0x35 TIF> -- CPU is running -- CPU_WriteMem(4 bytes @ 0xE000ED0C) -- CPU is running -- CPU_ReadMem(4 bytes @ 0xE000EDF0) -- CPU is running -- CPU_ReadMem(4 bytes @ 0xE000EDF0) -- CPU is running -- CPU_WriteMem(4 bytes @ 0xE000EDF0) -- CPU is running -- CPU_WriteMem(4 bytes @ 0xE000EDFC) -- CPU is running -- CPU_ReadMem(4 bytes @ 0xE000EDF0)
 -- CPU_WriteMem(4 bytes @ 0xE0002000) (0147ms, 0521ms total)
T1258 000:563 JLINK_Halt()  returns 0x00 (0000ms, 0521ms total)
T1258 000:563 JLINK_IsHalted()  returns TRUE (0000ms, 0521ms total)
T1258 000:563 JLINK_ReadMemU32(0xE000EDF0, 0x0001 Items, ...) -- CPU_ReadMem(4 bytes @ 0xE000EDF0) -- Data:  03 00 03 00  returns 0x01 (0007ms, 0528ms total)
T1258 000:570 JLINK_WriteU32(0xE000EDF0, 0xA05F0003) -- CPU_WriteMem(4 bytes @ 0xE000EDF0)  returns 0x00 (0004ms, 0532ms total)
T1258 000:574 JLINK_WriteU32(0xE000EDFC, 0x01000000) -- CPU_WriteMem(4 bytes @ 0xE000EDFC)  returns 0x00 (0004ms, 0536ms total)
T1258 000:630 JLINK_GetHWStatus(...)  returns 0x00 (0002ms, 0538ms total)
T1258 000:666 JLINK_GetNumBPUnits(Type = 0xFFFFFF00)  returns 0x06 (0000ms, 0538ms total)
T1258 000:666 JLINK_GetNumBPUnits(Type = 0xF0)  returns 0x2000 (0000ms, 0538ms total)
T1258 000:666 JLINK_GetNumWPUnits()  returns 0x04 (0000ms, 0538ms total)
T1258 000:685 JLINK_GetSpeed()  returns 0x64 (0000ms, 0538ms total)
T1258 000:695 JLINK_ReadMemU32(0xE000E004, 0x0001 Items, ...) -- CPU_ReadMem(4 bytes @ 0xE000E004) -- Data:  02 00 00 00  returns 0x01 (0006ms, 0544ms total)
T1258 000:701 JLINK_ReadMemU32(0xE000E004, 0x0001 Items, ...) -- CPU_ReadMem(4 bytes @ 0xE000E004) -- Data:  02 00 00 00  returns 0x01 (0007ms, 0551ms total)
T1258 000:708 JLINK_WriteMem(0xE0001000, 0x001C Bytes, ...) -- Data:  01 00 00 00 00 00 00 00 00 00 00 00 00 00 00 00 ... -- CPU_WriteMem(28 bytes @ 0xE0001000)  returns 0x1C (0006ms, 0557ms total)
T1258 000:714 JLINK_ReadMem (0xE0001000, 0x001C Bytes, ...) -- CPU_ReadMem(28 bytes @ 0xE0001000) -- Data:  01 00 00 40 00 00 00 00 00 00 00 00 00 00 00 00 ...  returns 0x00 (0009ms, 0566ms total)
T1258 000:723 JLINK_Halt()  returns 0x00 (0000ms, 0566ms total)
T1258 000:723 JLINK_IsHalted()  returns TRUE (0000ms, 0566ms total)
T1258 000:725 JLINK_WriteMem(0x20000000, 0x0180 Bytes, ...) -- Data:  00 BE 0A E0 0D 78 2D 06 68 40 08 24 40 00 00 D3 ... -- CPU_WriteMem(384 bytes @ 0x20000000)  returns 0x180 (0051ms, 0617ms total)
T1258 000:776 JLINK_WriteReg(R0, 0x08000000)  returns 0x00 (0000ms, 0617ms total)
T1258 000:776 JLINK_WriteReg(R1, 0x007A1200)  returns 0x00 (0000ms, 0617ms total)
T1258 000:776 JLINK_WriteReg(R2, 0x00000001)  returns 0x00 (0000ms, 0617ms total)
T1258 000:776 JLINK_WriteReg(R3, 0x00000000)  returns 0x00 (0000ms, 0617ms total)
T1258 000:776 JLINK_WriteReg(R4, 0x00000000)  returns 0x00 (0000ms, 0617ms total)
T1258 000:776 JLINK_WriteReg(R5, 0x00000000)  returns 0x00 (0000ms, 0617ms total)
T1258 000:776 JLINK_WriteReg(R6, 0x00000000)  returns 0x00 (0001ms, 0618ms total)
T1258 000:777 JLINK_WriteReg(R7, 0x00000000)  returns 0x00 (0000ms, 0618ms total)
T1258 000:777 JLINK_WriteReg(R8, 0x00000000)  returns 0x00 (0000ms, 0618ms total)
T1258 000:777 JLINK_WriteReg(R9, 0x2000017C)  returns 0x00 (0000ms, 0618ms total)
T1258 000:777 JLINK_WriteReg(R10, 0x00000000)  returns 0x00 (0000ms, 0618ms total)
T1258 000:777 JLINK_WriteReg(R11, 0x00000000)  returns 0x00 (0000ms, 0618ms total)
T1258 000:777 JLINK_WriteReg(R12, 0x00000000)  returns 0x00 (0000ms, 0618ms total)
T1258 000:777 JLINK_WriteReg(R13, 0x20000800)  returns 0x00 (0000ms, 0618ms total)
T1258 000:777 JLINK_WriteReg(R14, 0x20000001)  returns 0x00 (0000ms, 0618ms total)
T1258 000:777 JLINK_WriteReg(R15, 0x20000054)  returns 0x00 (0000ms, 0618ms total)
T1258 000:777 JLINK_WriteReg(XPSR, 0x01000000)  returns 0x00 (0000ms, 0618ms total)
T1258 000:777 JLINK_WriteReg(MSP, 0x20000800)  returns 0x00 (0000ms, 0618ms total)
T1258 000:777 JLINK_WriteReg(PSP, 0x20000800)  returns 0x00 (0000ms, 0618ms total)
T1258 000:777 JLINK_WriteReg(CFBP, 0x00000000)  returns 0x00 (0000ms, 0618ms total)
T1258 000:777 JLINK_SetBPEx(Addr = 0x20000000, Type = 0xFFFFFFF2) -- CPU_ReadMem(2 bytes @ 0x20000000)  returns 0x00000001 (0007ms, 0625ms total)
T1258 000:784 JLINK_Go() -- CPU_WriteMem(2 bytes @ 0x20000000) -- CPU_WriteMem(4 bytes @ 0xE0002008) -- CPU_WriteMem(4 bytes @ 0xE000200C) -- CPU_WriteMem(4 bytes @ 0xE0002010) -- CPU_WriteMem(4 bytes @ 0xE0002014) -- CPU_WriteMem(4 bytes @ 0xE0002018) -- CPU_WriteMem(4 bytes @ 0xE000201C) (0048ms, 0673ms total)
T1258 000:832 JLINK_IsHalted() -- CPU_ReadMem(2 bytes @ 0x20000000)  returns TRUE (0100ms, 0773ms total)
T1258 000:932 JLINK_ReadReg(R15)  returns 0x20000000 (0000ms, 0673ms total)
T1258 000:932 JLINK_ClrBPEx(BPHandle = 0x00000001)  returns 0x00 (0000ms, 0673ms total)
T1258 000:932 JLINK_ReadReg(R0)  returns 0x00000000 (0000ms, 0673ms total)
T1258 000:932 JLINK_WriteReg(R0, 0x08000000)  returns 0x00 (0000ms, 0673ms total)
T1258 000:932 JLINK_WriteReg(R1, 0x00004000)  returns 0x00 (0000ms, 0673ms total)
T1258 000:932 JLINK_WriteReg(R2, 0x000000FF)  returns 0x00 (0000ms, 0673ms total)
T1258 000:932 JLINK_WriteReg(R3, 0x00000000)  returns 0x00 (0001ms, 0674ms total)
T1258 000:933 JLINK_WriteReg(R4, 0x00000000)  returns 0x00 (0000ms, 0674ms total)
T1258 000:933 JLINK_WriteReg(R5, 0x00000000)  returns 0x00 (0000ms, 0674ms total)
T1258 000:933 JLINK_WriteReg(R6, 0x00000000)  returns 0x00 (0000ms, 0674ms total)
T1258 000:933 JLINK_WriteReg(R7, 0x00000000)  returns 0x00 (0000ms, 0674ms total)
T1258 000:933 JLINK_WriteReg(R8, 0x00000000)  returns 0x00 (0000ms, 0674ms total)
T1258 000:933 JLINK_WriteReg(R9, 0x2000017C)  returns 0x00 (0000ms, 0674ms total)
T1258 000:933 JLINK_WriteReg(R10, 0x00000000)  returns 0x00 (0000ms, 0674ms total)
T1258 000:933 JLINK_WriteReg(R11, 0x00000000)  returns 0x00 (0000ms, 0674ms total)
T1258 000:933 JLINK_WriteReg(R12, 0x00000000)  returns 0x00 (0000ms, 0674ms total)
T1258 000:933 JLINK_WriteReg(R13, 0x20000800)  returns 0x00 (0000ms, 0674ms total)
T1258 000:933 JLINK_WriteReg(R14, 0x20000001)  returns 0x00 (0000ms, 0674ms total)
T1258 000:933 JLINK_WriteReg(R15, 0x20000020)  returns 0x00 (0000ms, 0674ms total)
T1258 000:933 JLINK_WriteReg(XPSR, 0x01000000)  returns 0x00 (0000ms, 0674ms total)
T1258 000:933 JLINK_WriteReg(MSP, 0x20000800)  returns 0x00 (0000ms, 0674ms total)
T1258 000:933 JLINK_WriteReg(PSP, 0x20000800)  returns 0x00 (0000ms, 0674ms total)
T1258 000:933 JLINK_WriteReg(CFBP, 0x00000000)  returns 0x00 (0000ms, 0674ms total)
T1258 000:933 JLINK_SetBPEx(Addr = 0x20000000, Type = 0xFFFFFFF2)  returns 0x00000002 (0000ms, 0674ms total)
T1258 000:933 JLINK_Go() (0017ms, 0691ms total)
T1258 000:950 JLINK_IsHalted()  returns FALSE (0007ms, 0698ms total)
T1258 001:096 JLINK_IsHalted() -- CPU_ReadMem(2 bytes @ 0x20000000)  returns TRUE (0100ms, 0791ms total)
T1258 001:196 JLINK_ReadReg(R15)  returns 0x20000000 (0000ms, 0691ms total)
T1258 001:196 JLINK_ClrBPEx(BPHandle = 0x00000002)  returns 0x00 (0000ms, 0691ms total)
T1258 001:196 JLINK_ReadReg(R0)  returns 0x00000000 (0000ms, 0691ms total)
T1258 001:198 JLINK_WriteReg(R0, 0x0800C000)  returns 0x00 (0000ms, 0691ms total)
T1258 001:198 JLINK_WriteReg(R1, 0x00004000)  returns 0x00 (0000ms, 0691ms total)
T1258 001:198 JLINK_WriteReg(R2, 0x000000FF)  returns 0x00 (0000ms, 0691ms total)
T1258 001:198 JLINK_WriteReg(R3, 0x00000000)  returns 0x00 (0000ms, 0691ms total)
T1258 001:198 JLINK_WriteReg(R4, 0x00000000)  returns 0x00 (0001ms, 0692ms total)
T1258 001:199 JLINK_WriteReg(R5, 0x00000000)  returns 0x00 (0000ms, 0692ms total)
T1258 001:199 JLINK_WriteReg(R6, 0x00000000)  returns 0x00 (0000ms, 0692ms total)
T1258 001:199 JLINK_WriteReg(R7, 0x00000000)  returns 0x00 (0000ms, 0692ms total)
T1258 001:199 JLINK_WriteReg(R8, 0x00000000)  returns 0x00 (0000ms, 0692ms total)
T1258 001:199 JLINK_WriteReg(R9, 0x2000017C)  returns 0x00 (0000ms, 0692ms total)
T1258 001:199 JLINK_WriteReg(R10, 0x00000000)  returns 0x00 (0000ms, 0692ms total)
T1258 001:199 JLINK_WriteReg(R11, 0x00000000)  returns 0x00 (0000ms, 0692ms total)
T1258 001:199 JLINK_WriteReg(R12, 0x00000000)  returns 0x00 (0000ms, 0692ms total)
T1258 001:199 JLINK_WriteReg(R13, 0x20000800)  returns 0x00 (0000ms, 0692ms total)
T1258 001:199 JLINK_WriteReg(R14, 0x20000001)  returns 0x00 (0000ms, 0692ms total)
T1258 001:199 JLINK_WriteReg(R15, 0x20000020)  returns 0x00 (0000ms, 0692ms total)
T1258 001:199 JLINK_WriteReg(XPSR, 0x01000000)  returns 0x00 (0000ms, 0692ms total)
T1258 001:199 JLINK_WriteReg(MSP, 0x20000800)  returns 0x00 (0000ms, 0692ms total)
T1258 001:200 JLINK_WriteReg(PSP, 0x20000800)  returns 0x00 (0000ms, 0692ms total)
T1258 001:200 JLINK_WriteReg(CFBP, 0x00000000)  returns 0x00 (0000ms, 0692ms total)
T1258 001:200 JLINK_SetBPEx(Addr = 0x20000000, Type = 0xFFFFFFF2)  returns 0x00000003 (0000ms, 0692ms total)
T1258 001:200 JLINK_Go() (0016ms, 0708ms total)
T1258 001:217 JLINK_IsHalted()  returns FALSE (0006ms, 0715ms total)
T1258 001:353 JLINK_IsHalted() -- CPU_ReadMem(2 bytes @ 0x20000000)  returns TRUE (0099ms, 0808ms total)
T1258 001:452 JLINK_ReadReg(R15)  returns 0x20000000 (0000ms, 0709ms total)
T1258 001:452 JLINK_ClrBPEx(BPHandle = 0x00000003)  returns 0x00 (0000ms, 0709ms total)
T1258 001:452 JLINK_ReadReg(R0)  returns 0x00000000 (0000ms, 0709ms total)
T1258 001:455 JLINK_WriteReg(R0, 0x08010000)  returns 0x00 (0000ms, 0709ms total)
T1258 001:455 JLINK_WriteReg(R1, 0x00010000)  returns 0x00 (0000ms, 0709ms total)
T1258 001:455 JLINK_WriteReg(R2, 0x000000FF)  returns 0x00 (0000ms, 0709ms total)
T1258 001:455 JLINK_WriteReg(R3, 0x00000000)  returns 0x00 (0000ms, 0709ms total)
T1258 001:455 JLINK_WriteReg(R4, 0x00000000)  returns 0x00 (0000ms, 0709ms total)
T1258 001:455 JLINK_WriteReg(R5, 0x00000000)  returns 0x00 (0000ms, 0709ms total)
T1258 001:455 JLINK_WriteReg(R6, 0x00000000)  returns 0x00 (0000ms, 0709ms total)
T1258 001:455 JLINK_WriteReg(R7, 0x00000000)  returns 0x00 (0000ms, 0709ms total)
T1258 001:455 JLINK_WriteReg(R8, 0x00000000)  returns 0x00 (0000ms, 0709ms total)
T1258 001:455 JLINK_WriteReg(R9, 0x2000017C)  returns 0x00 (0000ms, 0709ms total)
T1258 001:455 JLINK_WriteReg(R10, 0x00000000)  returns 0x00 (0000ms, 0709ms total)
T1258 001:455 JLINK_WriteReg(R11, 0x00000000)  returns 0x00 (0000ms, 0709ms total)
T1258 001:455 JLINK_WriteReg(R12, 0x00000000)  returns 0x00 (0000ms, 0709ms total)
T1258 001:455 JLINK_WriteReg(R13, 0x20000800)  returns 0x00 (0001ms, 0710ms total)
T1258 001:456 JLINK_WriteReg(R14, 0x20000001)  returns 0x00 (0000ms, 0710ms total)
T1258 001:456 JLINK_WriteReg(R15, 0x20000020)  returns 0x00 (0000ms, 0710ms total)
T1258 001:456 JLINK_WriteReg(XPSR, 0x01000000)  returns 0x00 (0000ms, 0710ms total)
T1258 001:456 JLINK_WriteReg(MSP, 0x20000800)  returns 0x00 (0000ms, 0710ms total)
T1258 001:456 JLINK_WriteReg(PSP, 0x20000800)  returns 0x00 (0000ms, 0710ms total)
T1258 001:456 JLINK_WriteReg(CFBP, 0x00000000)  returns 0x00 (0000ms, 0710ms total)
T1258 001:456 JLINK_SetBPEx(Addr = 0x20000000, Type = 0xFFFFFFF2)  returns 0x00000004 (0000ms, 0710ms total)
T1258 001:456 JLINK_Go() (0017ms, 0727ms total)
T1258 001:473 JLINK_IsHalted()  returns FALSE (0007ms, 0734ms total)
T1258 001:592 JLINK_IsHalted() -- CPU_ReadMem(2 bytes @ 0x20000000)  returns TRUE (0099ms, 0826ms total)
T1258 001:691 JLINK_ReadReg(R15)  returns 0x20000000 (0000ms, 0727ms total)
T1258 001:691 JLINK_ClrBPEx(BPHandle = 0x00000004)  returns 0x00 (0000ms, 0727ms total)
T1258 001:691 JLINK_ReadReg(R0)  returns 0x00000000 (0000ms, 0727ms total)
T1258 001:693 JLINK_WriteReg(R0, 0x08020000)  returns 0x00 (0000ms, 0727ms total)
T1258 001:693 JLINK_WriteReg(R1, 0x00020000)  returns 0x00 (0000ms, 0727ms total)
T1258 001:693 JLINK_WriteReg(R2, 0x000000FF)  returns 0x00 (0000ms, 0727ms total)
T1258 001:693 JLINK_WriteReg(R3, 0x00000000)  returns 0x00 (0000ms, 0727ms total)
T1258 001:693 JLINK_WriteReg(R4, 0x00000000)  returns 0x00 (0001ms, 0728ms total)
T1258 001:694 JLINK_WriteReg(R5, 0x00000000)  returns 0x00 (0000ms, 0728ms total)
T1258 001:694 JLINK_WriteReg(R6, 0x00000000)  returns 0x00 (0000ms, 0728ms total)
T1258 001:694 JLINK_WriteReg(R7, 0x00000000)  returns 0x00 (0000ms, 0728ms total)
T1258 001:694 JLINK_WriteReg(R8, 0x00000000)  returns 0x00 (0000ms, 0728ms total)
T1258 001:694 JLINK_WriteReg(R9, 0x2000017C)  returns 0x00 (0000ms, 0728ms total)
T1258 001:694 JLINK_WriteReg(R10, 0x00000000)  returns 0x00 (0000ms, 0728ms total)
T1258 001:694 JLINK_WriteReg(R11, 0x00000000)  returns 0x00 (0000ms, 0728ms total)
T1258 001:694 JLINK_WriteReg(R12, 0x00000000)  returns 0x00 (0000ms, 0728ms total)
T1258 001:694 JLINK_WriteReg(R13, 0x20000800)  returns 0x00 (0000ms, 0728ms total)
T1258 001:694 JLINK_WriteReg(R14, 0x20000001)  returns 0x00 (0000ms, 0728ms total)
T1258 001:694 JLINK_WriteReg(R15, 0x20000020)  returns 0x00 (0000ms, 0728ms total)
T1258 001:694 JLINK_WriteReg(XPSR, 0x01000000)  returns 0x00 (0000ms, 0728ms total)
T1258 001:694 JLINK_WriteReg(MSP, 0x20000800)  returns 0x00 (0000ms, 0728ms total)
T1258 001:694 JLINK_WriteReg(PSP, 0x20000800)  returns 0x00 (0000ms, 0728ms total)
T1258 001:694 JLINK_WriteReg(CFBP, 0x00000000)  returns 0x00 (0001ms, 0729ms total)
T1258 001:695 JLINK_SetBPEx(Addr = 0x20000000, Type = 0xFFFFFFF2)  returns 0x00000005 (0000ms, 0729ms total)
T1258 001:695 JLINK_Go() (0016ms, 0745ms total)
T1258 001:712 JLINK_IsHalted()  returns FALSE (0006ms, 0752ms total)
T1258 001:839 JLINK_IsHalted() -- CPU_ReadMem(2 bytes @ 0x20000000)  returns TRUE (0099ms, 0845ms total)
T1258 001:938 JLINK_ReadReg(R15)  returns 0x20000000 (0000ms, 0746ms total)
T1258 001:938 JLINK_ClrBPEx(BPHandle = 0x00000005)  returns 0x00 (0000ms, 0746ms total)
T1258 001:938 JLINK_ReadReg(R0)  returns 0x00000000 (0000ms, 0746ms total)
T1258 001:939 JLINK_WriteReg(R0, 0x00000001)  returns 0x00 (0000ms, 0746ms total)
T1258 001:939 JLINK_WriteReg(R1, 0x00020000)  returns 0x00 (0000ms, 0746ms total)
T1258 001:939 JLINK_WriteReg(R2, 0x000000FF)  returns 0x00 (0000ms, 0746ms total)
T1258 001:939 JLINK_WriteReg(R3, 0x00000000)  returns 0x00 (0000ms, 0746ms total)
T1258 001:939 JLINK_WriteReg(R4, 0x00000000)  returns 0x00 (0000ms, 0746ms total)
T1258 001:939 JLINK_WriteReg(R5, 0x00000000)  returns 0x00 (0000ms, 0746ms total)
T1258 001:939 JLINK_WriteReg(R6, 0x00000000)  returns 0x00 (0000ms, 0746ms total)
T1258 001:939 JLINK_WriteReg(R7, 0x00000000)  returns 0x00 (0001ms, 0747ms total)
T1258 001:940 JLINK_WriteReg(R8, 0x00000000)  returns 0x00 (0000ms, 0747ms total)
T1258 001:940 JLINK_WriteReg(R9, 0x2000017C)  returns 0x00 (0000ms, 0747ms total)
T1258 001:940 JLINK_WriteReg(R10, 0x00000000)  returns 0x00 (0000ms, 0747ms total)
T1258 001:940 JLINK_WriteReg(R11, 0x00000000)  returns 0x00 (0000ms, 0747ms total)
T1258 001:940 JLINK_WriteReg(R12, 0x00000000)  returns 0x00 (0000ms, 0747ms total)
T1258 001:940 JLINK_WriteReg(R13, 0x20000800)  returns 0x00 (0000ms, 0747ms total)
T1258 001:940 JLINK_WriteReg(R14, 0x20000001)  returns 0x00 (0000ms, 0747ms total)
T1258 001:940 JLINK_WriteReg(R15, 0x20000082)  returns 0x00 (0000ms, 0747ms total)
T1258 001:940 JLINK_WriteReg(XPSR, 0x01000000)  returns 0x00 (0000ms, 0747ms total)
T1258 001:940 JLINK_WriteReg(MSP, 0x20000800)  returns 0x00 (0000ms, 0747ms total)
T1258 001:940 JLINK_WriteReg(PSP, 0x20000800)  returns 0x00 (0000ms, 0747ms total)
T1258 001:940 JLINK_WriteReg(CFBP, 0x00000000)  returns 0x00 (0000ms, 0747ms total)
T1258 001:940 JLINK_SetBPEx(Addr = 0x20000000, Type = 0xFFFFFFF2)  returns 0x00000006 (0000ms, 0747ms total)
T1258 001:940 JLINK_Go() (0017ms, 0764ms total)
T1258 001:957 JLINK_IsHalted() -- CPU_ReadMem(2 bytes @ 0x20000000)  returns TRUE (0100ms, 0864ms total)
T1258 002:057 JLINK_ReadReg(R15)  returns 0x20000000 (0001ms, 0765ms total)
T1258 002:058 JLINK_ClrBPEx(BPHandle = 0x00000006)  returns 0x00 (0000ms, 0765ms total)
T1258 002:058 JLINK_ReadReg(R0)  returns 0x00000000 (0000ms, 0765ms total)
T1258 002:126 JLINK_WriteMem(0x20000000, 0x0180 Bytes, ...) -- Data:  00 BE 0A E0 0D 78 2D 06 68 40 08 24 40 00 00 D3 ... -- CPU_WriteMem(384 bytes @ 0x20000000)  returns 0x180 (0051ms, 0816ms total)
T1258 002:177 JLINK_WriteReg(R0, 0x08000000)  returns 0x00 (0000ms, 0816ms total)
T1258 002:177 JLINK_WriteReg(R1, 0x007A1200)  returns 0x00 (0000ms, 0816ms total)
T1258 002:177 JLINK_WriteReg(R2, 0x00000002)  returns 0x00 (0000ms, 0816ms total)
T1258 002:177 JLINK_WriteReg(R3, 0x00000000)  returns 0x00 (0000ms, 0816ms total)
T1258 002:177 JLINK_WriteReg(R4, 0x00000000)  returns 0x00 (0000ms, 0816ms total)
T1258 002:177 JLINK_WriteReg(R5, 0x00000000)  returns 0x00 (0000ms, 0816ms total)
T1258 002:177 JLINK_WriteReg(R6, 0x00000000)  returns 0x00 (0000ms, 0816ms total)
T1258 002:177 JLINK_WriteReg(R7, 0x00000000)  returns 0x00 (0001ms, 0817ms total)
T1258 002:178 JLINK_WriteReg(R8, 0x00000000)  returns 0x00 (0000ms, 0817ms total)
T1258 002:178 JLINK_WriteReg(R9, 0x2000017C)  returns 0x00 (0000ms, 0817ms total)
T1258 002:178 JLINK_WriteReg(R10, 0x00000000)  returns 0x00 (0000ms, 0817ms total)
T1258 002:178 JLINK_WriteReg(R11, 0x00000000)  returns 0x00 (0000ms, 0817ms total)
T1258 002:178 JLINK_WriteReg(R12, 0x00000000)  returns 0x00 (0000ms, 0817ms total)
T1258 002:178 JLINK_WriteReg(R13, 0x20000800)  returns 0x00 (0000ms, 0817ms total)
T1258 002:178 JLINK_WriteReg(R14, 0x20000001)  returns 0x00 (0000ms, 0817ms total)
T1258 002:178 JLINK_WriteReg(R15, 0x20000054)  returns 0x00 (0000ms, 0817ms total)
T1258 002:178 JLINK_WriteReg(XPSR, 0x01000000)  returns 0x00 (0000ms, 0817ms total)
T1258 002:178 JLINK_WriteReg(MSP, 0x20000800)  returns 0x00 (0000ms, 0817ms total)
T1258 002:178 JLINK_WriteReg(PSP, 0x20000800)  returns 0x00 (0000ms, 0817ms total)
T1258 002:178 JLINK_WriteReg(CFBP, 0x00000000)  returns 0x00 (0000ms, 0817ms total)
T1258 002:178 JLINK_SetBPEx(Addr = 0x20000000, Type = 0xFFFFFFF2) -- CPU_ReadMem(2 bytes @ 0x20000000)  returns 0x00000007 (0007ms, 0824ms total)
T1258 002:185 JLINK_Go() -- CPU_WriteMem(2 bytes @ 0x20000000) (0021ms, 0845ms total)
T1258 002:206 JLINK_IsHalted() -- CPU_ReadMem(2 bytes @ 0x20000000)  returns TRUE (0100ms, 0945ms total)
T1258 002:306 JLINK_ReadReg(R15)  returns 0x20000000 (0000ms, 0845ms total)
T1258 002:306 JLINK_ClrBPEx(BPHandle = 0x00000007)  returns 0x00 (0000ms, 0845ms total)
T1258 002:306 JLINK_ReadReg(R0)  returns 0x00000000 (0000ms, 0845ms total)
T1258 002:308 JLINK_WriteMem(0x20000180, 0x0400 Bytes, ...) -- Data:  90 43 01 20 0D C4 00 08 15 C4 00 08 17 C4 00 08 ... -- CPU_WriteMem(1024 bytes @ 0x20000180)  returns 0x400 (0127ms, 0972ms total)
T1258 002:435 JLINK_WriteReg(R0, 0x08000000)  returns 0x00 (0000ms, 0972ms total)
T1258 002:435 JLINK_WriteReg(R1, 0x0000023C)  returns 0x00 (0000ms, 0972ms total)
T1258 002:435 JLINK_WriteReg(R2, 0x20000180)  returns 0x00 (0000ms, 0972ms total)
T1258 002:435 JLINK_WriteReg(R3, 0x00000000)  returns 0x00 (0000ms, 0972ms total)
T1258 002:435 JLINK_WriteReg(R4, 0x00000000)  returns 0x00 (0000ms, 0972ms total)
T1258 002:435 JLINK_WriteReg(R5, 0x00000000)  returns 0x00 (0000ms, 0972ms total)
T1258 002:435 JLINK_WriteReg(R6, 0x00000000)  returns 0x00 (0000ms, 0972ms total)
T1258 002:435 JLINK_WriteReg(R7, 0x00000000)  returns 0x00 (0001ms, 0973ms total)
T1258 002:436 JLINK_WriteReg(R8, 0x00000000)  returns 0x00 (0000ms, 0973ms total)
T1258 002:436 JLINK_WriteReg(R9, 0x2000017C)  returns 0x00 (0000ms, 0973ms total)
T1258 002:436 JLINK_WriteReg(R10, 0x00000000)  returns 0x00 (0000ms, 0973ms total)
T1258 002:436 JLINK_WriteReg(R11, 0x00000000)  returns 0x00 (0000ms, 0973ms total)
T1258 002:436 JLINK_WriteReg(R12, 0x00000000)  returns 0x00 (0000ms, 0973ms total)
T1258 002:436 JLINK_WriteReg(R13, 0x20000800)  returns 0x00 (0000ms, 0973ms total)
T1258 002:436 JLINK_WriteReg(R14, 0x20000001)  returns 0x00 (0000ms, 0973ms total)
T1258 002:436 JLINK_WriteReg(R15, 0x20000108)  returns 0x00 (0000ms, 0973ms total)
T1258 002:436 JLINK_WriteReg(XPSR, 0x01000000)  returns 0x00 (0000ms, 0973ms total)
T1258 002:436 JLINK_WriteReg(MSP, 0x20000800)  returns 0x00 (0000ms, 0973ms total)
T1258 002:436 JLINK_WriteReg(PSP, 0x20000800)  returns 0x00 (0000ms, 0973ms total)
T1258 002:436 JLINK_WriteReg(CFBP, 0x00000000)  returns 0x00 (0000ms, 0973ms total)
T1258 002:436 JLINK_SetBPEx(Addr = 0x20000000, Type = 0xFFFFFFF2)  returns 0x00000008 (0000ms, 0973ms total)
T1258 002:436 JLINK_Go() (0017ms, 0990ms total)
T1258 002:453 JLINK_IsHalted() -- CPU_ReadMem(2 bytes @ 0x20000000)  returns TRUE (0100ms, 1090ms total)
T1258 002:553 JLINK_ReadReg(R15)  returns 0x20000000 (0000ms, 0990ms total)
T1258 002:553 JLINK_ClrBPEx(BPHandle = 0x00000008)  returns 0x00 (0000ms, 0990ms total)
T1258 002:553 JLINK_ReadReg(R0)  returns 0x00000000 (0000ms, 0990ms total)
T1258 002:555 JLINK_WriteMem(0x20000180, 0x0400 Bytes, ...) -- Data:  10 B5 05 F0 A7 FF 64 20 10 F0 6C FD 05 F0 B1 FF ... -- CPU_WriteMem(1024 bytes @ 0x20000180)  returns 0x400 (0126ms, 1116ms total)
T1258 002:681 JLINK_WriteReg(R0, 0x0800C000)  returns 0x00 (0000ms, 1116ms total)
T1258 002:681 JLINK_WriteReg(R1, 0x00000400)  returns 0x00 (0000ms, 1116ms total)
T1258 002:681 JLINK_WriteReg(R2, 0x20000180)  returns 0x00 (0000ms, 1116ms total)
T1258 002:681 JLINK_WriteReg(R3, 0x00000000)  returns 0x00 (0000ms, 1116ms total)
T1258 002:681 JLINK_WriteReg(R4, 0x00000000)  returns 0x00 (0001ms, 1117ms total)
T1258 002:682 JLINK_WriteReg(R5, 0x00000000)  returns 0x00 (0000ms, 1117ms total)
T1258 002:682 JLINK_WriteReg(R6, 0x00000000)  returns 0x00 (0000ms, 1117ms total)
T1258 002:682 JLINK_WriteReg(R7, 0x00000000)  returns 0x00 (0000ms, 1117ms total)
T1258 002:682 JLINK_WriteReg(R8, 0x00000000)  returns 0x00 (0000ms, 1117ms total)
T1258 002:682 JLINK_WriteReg(R9, 0x2000017C)  returns 0x00 (0000ms, 1117ms total)
T1258 002:682 JLINK_WriteReg(R10, 0x00000000)  returns 0x00 (0000ms, 1117ms total)
T1258 002:682 JLINK_WriteReg(R11, 0x00000000)  returns 0x00 (0000ms, 1117ms total)
T1258 002:682 JLINK_WriteReg(R12, 0x00000000)  returns 0x00 (0000ms, 1117ms total)
T1258 002:682 JLINK_WriteReg(R13, 0x20000800)  returns 0x00 (0000ms, 1117ms total)
T1258 002:682 JLINK_WriteReg(R14, 0x20000001)  returns 0x00 (0000ms, 1117ms total)
T1258 002:682 JLINK_WriteReg(R15, 0x20000108)  returns 0x00 (0000ms, 1117ms total)
T1258 002:682 JLINK_WriteReg(XPSR, 0x01000000)  returns 0x00 (0000ms, 1117ms total)
T1258 002:682 JLINK_WriteReg(MSP, 0x20000800)  returns 0x00 (0000ms, 1117ms total)
T1258 002:682 JLINK_WriteReg(PSP, 0x20000800)  returns 0x00 (0000ms, 1117ms total)
T1258 002:682 JLINK_WriteReg(CFBP, 0x00000000)  returns 0x00 (0001ms, 1118ms total)
T1258 002:683 JLINK_SetBPEx(Addr = 0x20000000, Type = 0xFFFFFFF2)  returns 0x00000009 (0000ms, 1118ms total)
T1258 002:683 JLINK_Go() (0017ms, 1135ms total)
T1258 002:701 JLINK_IsHalted() -- CPU_ReadMem(2 bytes @ 0x20000000)  returns TRUE (0100ms, 1236ms total)
T1258 002:801 JLINK_ReadReg(R15)  returns 0x20000000 (0000ms, 1136ms total)
T1258 002:801 JLINK_ClrBPEx(BPHandle = 0x00000009)  returns 0x00 (0000ms, 1136ms total)
T1258 002:801 JLINK_ReadReg(R0)  returns 0x00000000 (0000ms, 1136ms total)
T1258 002:803 JLINK_WriteMem(0x20000180, 0x0400 Bytes, ...) -- Data:  00 00 00 20 00 12 7A 00 04 00 00 20 06 48 80 47 ... -- CPU_WriteMem(1024 bytes @ 0x20000180)  returns 0x400 (0127ms, 1263ms total)
T1258 002:930 JLINK_WriteReg(R0, 0x0800C400)  returns 0x00 (0000ms, 1263ms total)
T1258 002:930 JLINK_WriteReg(R1, 0x00000400)  returns 0x00 (0000ms, 1263ms total)
T1258 002:930 JLINK_WriteReg(R2, 0x20000180)  returns 0x00 (0000ms, 1263ms total)
T1258 002:930 JLINK_WriteReg(R3, 0x00000000)  returns 0x00 (0000ms, 1263ms total)
T1258 002:930 JLINK_WriteReg(R4, 0x00000000)  returns 0x00 (0000ms, 1263ms total)
T1258 002:930 JLINK_WriteReg(R5, 0x00000000)  returns 0x00 (0000ms, 1263ms total)
T1258 002:930 JLINK_WriteReg(R6, 0x00000000)  returns 0x00 (0000ms, 1263ms total)
T1258 002:930 JLINK_WriteReg(R7, 0x00000000)  returns 0x00 (0000ms, 1263ms total)
T1258 002:930 JLINK_WriteReg(R8, 0x00000000)  returns 0x00 (0000ms, 1263ms total)
T1258 002:930 JLINK_WriteReg(R9, 0x2000017C)  returns 0x00 (0001ms, 1264ms total)
T1258 002:931 JLINK_WriteReg(R10, 0x00000000)  returns 0x00 (0000ms, 1264ms total)
T1258 002:931 JLINK_WriteReg(R11, 0x00000000)  returns 0x00 (0000ms, 1264ms total)
T1258 002:931 JLINK_WriteReg(R12, 0x00000000)  returns 0x00 (0000ms, 1264ms total)
T1258 002:931 JLINK_WriteReg(R13, 0x20000800)  returns 0x00 (0000ms, 1264ms total)
T1258 002:931 JLINK_WriteReg(R14, 0x20000001)  returns 0x00 (0000ms, 1264ms total)
T1258 002:931 JLINK_WriteReg(R15, 0x20000108)  returns 0x00 (0000ms, 1264ms total)
T1258 002:931 JLINK_WriteReg(XPSR, 0x01000000)  returns 0x00 (0000ms, 1264ms total)
T1258 002:931 JLINK_WriteReg(MSP, 0x20000800)  returns 0x00 (0000ms, 1264ms total)
T1258 002:931 JLINK_WriteReg(PSP, 0x20000800)  returns 0x00 (0000ms, 1264ms total)
T1258 002:931 JLINK_WriteReg(CFBP, 0x00000000)  returns 0x00 (0000ms, 1264ms total)
T1258 002:932 JLINK_SetBPEx(Addr = 0x20000000, Type = 0xFFFFFFF2)  returns 0x0000000A (0000ms, 1265ms total)
T1258 002:932 JLINK_Go() (0045ms, 1310ms total)
T1258 002:977 JLINK_IsHalted() -- CPU_ReadMem(2 bytes @ 0x20000000)  returns TRUE (0099ms, 1409ms total)
T1258 003:077 JLINK_ReadReg(R15)  returns 0x20000000 (0000ms, 1310ms total)
T1258 003:077 JLINK_ClrBPEx(BPHandle = 0x0000000A)  returns 0x00 (0000ms, 1310ms total)
T1258 003:077 JLINK_ReadReg(R0)  returns 0x00000000 (0000ms, 1310ms total)
T1258 003:077 JLINK_WriteMem(0x20000180, 0x0400 Bytes, ...) -- Data:  80 F9 00 1B 80 B2 46 28 F9 DB 3B 46 6A 46 41 46 ... -- CPU_WriteMem(1024 bytes @ 0x20000180)  returns 0x400 (0127ms, 1437ms total)
T1258 003:204 JLINK_WriteReg(R0, 0x0800C800)  returns 0x00 (0001ms, 1438ms total)
T1258 003:205 JLINK_WriteReg(R1, 0x00000400)  returns 0x00 (0000ms, 1438ms total)
T1258 003:205 JLINK_WriteReg(R2, 0x20000180)  returns 0x00 (0000ms, 1438ms total)
T1258 003:205 JLINK_WriteReg(R3, 0x00000000)  returns 0x00 (0000ms, 1438ms total)
T1258 003:205 JLINK_WriteReg(R4, 0x00000000)  returns 0x00 (0000ms, 1438ms total)
T1258 003:205 JLINK_WriteReg(R5, 0x00000000)  returns 0x00 (0000ms, 1438ms total)
T1258 003:205 JLINK_WriteReg(R6, 0x00000000)  returns 0x00 (0000ms, 1438ms total)
T1258 003:205 JLINK_WriteReg(R7, 0x00000000)  returns 0x00 (0000ms, 1438ms total)
T1258 003:205 JLINK_WriteReg(R8, 0x00000000)  returns 0x00 (0000ms, 1438ms total)
T1258 003:205 JLINK_WriteReg(R9, 0x2000017C)  returns 0x00 (0000ms, 1438ms total)
T1258 003:205 JLINK_WriteReg(R10, 0x00000000)  returns 0x00 (0000ms, 1438ms total)
T1258 003:205 JLINK_WriteReg(R11, 0x00000000)  returns 0x00 (0000ms, 1438ms total)
T1258 003:205 JLINK_WriteReg(R12, 0x00000000)  returns 0x00 (0000ms, 1438ms total)
T1258 003:205 JLINK_WriteReg(R13, 0x20000800)  returns 0x00 (0000ms, 1438ms total)
T1258 003:206 JLINK_WriteReg(R14, 0x20000001)  returns 0x00 (0000ms, 1438ms total)
T1258 003:206 JLINK_WriteReg(R15, 0x20000108)  returns 0x00 (0000ms, 1438ms total)
T1258 003:206 JLINK_WriteReg(XPSR, 0x01000000)  returns 0x00 (0000ms, 1438ms total)
T1258 003:206 JLINK_WriteReg(MSP, 0x20000800)  returns 0x00 (0000ms, 1438ms total)
T1258 003:206 JLINK_WriteReg(PSP, 0x20000800)  returns 0x00 (0000ms, 1438ms total)
T1258 003:206 JLINK_WriteReg(CFBP, 0x00000000)  returns 0x00 (0000ms, 1438ms total)
T1258 003:206 JLINK_SetBPEx(Addr = 0x20000000, Type = 0xFFFFFFF2)  returns 0x0000000B (0000ms, 1438ms total)
T1258 003:206 JLINK_Go() (0018ms, 1456ms total)
T1258 003:224 JLINK_IsHalted() -- CPU_ReadMem(2 bytes @ 0x20000000)  returns TRUE (0100ms, 1556ms total)
T1258 003:324 JLINK_ReadReg(R15)  returns 0x20000000 (0000ms, 1456ms total)
T1258 003:324 JLINK_ClrBPEx(BPHandle = 0x0000000B)  returns 0x00 (0000ms, 1456ms total)
T1258 003:324 JLINK_ReadReg(R0)  returns 0x00000000 (0000ms, 1456ms total)
T1258 003:324 JLINK_WriteMem(0x20000180, 0x0400 Bytes, ...) -- Data:  A2 FF 83 46 0F F0 97 FF 59 46 00 90 05 F0 F1 FC ... -- CPU_WriteMem(1024 bytes @ 0x20000180)  returns 0x400 (0127ms, 1583ms total)
T1258 003:451 JLINK_WriteReg(R0, 0x0800CC00)  returns 0x00 (0000ms, 1583ms total)
T1258 003:451 JLINK_WriteReg(R1, 0x00000400)  returns 0x00 (0000ms, 1583ms total)
T1258 003:451 JLINK_WriteReg(R2, 0x20000180)  returns 0x00 (0000ms, 1583ms total)
T1258 003:451 JLINK_WriteReg(R3, 0x00000000)  returns 0x00 (0000ms, 1583ms total)
T1258 003:451 JLINK_WriteReg(R4, 0x00000000)  returns 0x00 (0000ms, 1583ms total)
T1258 003:451 JLINK_WriteReg(R5, 0x00000000)  returns 0x00 (0000ms, 1583ms total)
T1258 003:451 JLINK_WriteReg(R6, 0x00000000)  returns 0x00 (0000ms, 1583ms total)
T1258 003:451 JLINK_WriteReg(R7, 0x00000000)  returns 0x00 (0000ms, 1583ms total)
T1258 003:451 JLINK_WriteReg(R8, 0x00000000)  returns 0x00 (0000ms, 1583ms total)
T1258 003:451 JLINK_WriteReg(R9, 0x2000017C)  returns 0x00 (0000ms, 1583ms total)
T1258 003:451 JLINK_WriteReg(R10, 0x00000000)  returns 0x00 (0001ms, 1584ms total)
T1258 003:452 JLINK_WriteReg(R11, 0x00000000)  returns 0x00 (0000ms, 1584ms total)
T1258 003:452 JLINK_WriteReg(R12, 0x00000000)  returns 0x00 (0000ms, 1584ms total)
T1258 003:452 JLINK_WriteReg(R13, 0x20000800)  returns 0x00 (0000ms, 1584ms total)
T1258 003:452 JLINK_WriteReg(R14, 0x20000001)  returns 0x00 (0000ms, 1584ms total)
T1258 003:452 JLINK_WriteReg(R15, 0x20000108)  returns 0x00 (0000ms, 1584ms total)
T1258 003:452 JLINK_WriteReg(XPSR, 0x01000000)  returns 0x00 (0000ms, 1584ms total)
T1258 003:452 JLINK_WriteReg(MSP, 0x20000800)  returns 0x00 (0000ms, 1584ms total)
T1258 003:452 JLINK_WriteReg(PSP, 0x20000800)  returns 0x00 (0000ms, 1584ms total)
T1258 003:452 JLINK_WriteReg(CFBP, 0x00000000)  returns 0x00 (0000ms, 1584ms total)
T1258 003:452 JLINK_SetBPEx(Addr = 0x20000000, Type = 0xFFFFFFF2)  returns 0x0000000C (0000ms, 1584ms total)
T1258 003:452 JLINK_Go() (0018ms, 1602ms total)
T1258 003:470 JLINK_IsHalted() -- CPU_ReadMem(2 bytes @ 0x20000000)  returns TRUE (0100ms, 1702ms total)
T1258 003:570 JLINK_ReadReg(R15)  returns 0x20000000 (0000ms, 1602ms total)
T1258 003:570 JLINK_ClrBPEx(BPHandle = 0x0000000C)  returns 0x00 (0000ms, 1602ms total)
T1258 003:570 JLINK_ReadReg(R0)  returns 0x00000000 (0000ms, 1602ms total)
T1258 003:570 JLINK_WriteMem(0x20000180, 0x0400 Bytes, ...) -- Data:  3A 20 6D 6F 74 6F 20 6F 75 74 20 65 72 72 6F 72 ... -- CPU_WriteMem(1024 bytes @ 0x20000180)  returns 0x400 (0127ms, 1729ms total)
T1258 003:697 JLINK_WriteReg(R0, 0x0800D000)  returns 0x00 (0000ms, 1729ms total)
T1258 003:697 JLINK_WriteReg(R1, 0x00000400)  returns 0x00 (0000ms, 1729ms total)
T1258 003:697 JLINK_WriteReg(R2, 0x20000180)  returns 0x00 (0000ms, 1729ms total)
T1258 003:697 JLINK_WriteReg(R3, 0x00000000)  returns 0x00 (0000ms, 1729ms total)
T1258 003:697 JLINK_WriteReg(R4, 0x00000000)  returns 0x00 (0000ms, 1729ms total)
T1258 003:697 JLINK_WriteReg(R5, 0x00000000)  returns 0x00 (0000ms, 1729ms total)
T1258 003:697 JLINK_WriteReg(R6, 0x00000000)  returns 0x00 (0000ms, 1729ms total)
T1258 003:697 JLINK_WriteReg(R7, 0x00000000)  returns 0x00 (0000ms, 1729ms total)
T1258 003:697 JLINK_WriteReg(R8, 0x00000000)  returns 0x00 (0000ms, 1729ms total)
T1258 003:697 JLINK_WriteReg(R9, 0x2000017C)  returns 0x00 (0000ms, 1729ms total)
T1258 003:697 JLINK_WriteReg(R10, 0x00000000)  returns 0x00 (0000ms, 1729ms total)
T1258 003:697 JLINK_WriteReg(R11, 0x00000000)  returns 0x00 (0000ms, 1729ms total)
T1258 003:697 JLINK_WriteReg(R12, 0x00000000)  returns 0x00 (0001ms, 1730ms total)
T1258 003:698 JLINK_WriteReg(R13, 0x20000800)  returns 0x00 (0000ms, 1730ms total)
T1258 003:698 JLINK_WriteReg(R14, 0x20000001)  returns 0x00 (0000ms, 1730ms total)
T1258 003:698 JLINK_WriteReg(R15, 0x20000108)  returns 0x00 (0000ms, 1730ms total)
T1258 003:698 JLINK_WriteReg(XPSR, 0x01000000)  returns 0x00 (0000ms, 1730ms total)
T1258 003:698 JLINK_WriteReg(MSP, 0x20000800)  returns 0x00 (0000ms, 1730ms total)
T1258 003:698 JLINK_WriteReg(PSP, 0x20000800)  returns 0x00 (0000ms, 1730ms total)
T1258 003:698 JLINK_WriteReg(CFBP, 0x00000000)  returns 0x00 (0000ms, 1730ms total)
T1258 003:698 JLINK_SetBPEx(Addr = 0x20000000, Type = 0xFFFFFFF2)  returns 0x0000000D (0000ms, 1730ms total)
T1258 003:698 JLINK_Go() (0018ms, 1748ms total)
T1258 003:716 JLINK_IsHalted() -- CPU_ReadMem(2 bytes @ 0x20000000)  returns TRUE (0100ms, 1848ms total)
T1258 003:816 JLINK_ReadReg(R15)  returns 0x20000000 (0000ms, 1748ms total)
T1258 003:816 JLINK_ClrBPEx(BPHandle = 0x0000000D)  returns 0x00 (0000ms, 1748ms total)
T1258 003:816 JLINK_ReadReg(R0)  returns 0x00000000 (0000ms, 1748ms total)
T1258 003:816 JLINK_WriteMem(0x20000180, 0x0400 Bytes, ...) -- Data:  FF F7 E1 FB 04 90 3A 49 04 98 88 42 0A DB 00 20 ... -- CPU_WriteMem(1024 bytes @ 0x20000180)  returns 0x400 (0127ms, 1875ms total)
T1258 003:943 JLINK_WriteReg(R0, 0x0800D400)  returns 0x00 (0000ms, 1875ms total)
T1258 003:943 JLINK_WriteReg(R1, 0x00000400)  returns 0x00 (0000ms, 1875ms total)
T1258 003:943 JLINK_WriteReg(R2, 0x20000180)  returns 0x00 (0000ms, 1875ms total)
T1258 003:943 JLINK_WriteReg(R3, 0x00000000)  returns 0x00 (0000ms, 1875ms total)
T1258 003:943 JLINK_WriteReg(R4, 0x00000000)  returns 0x00 (0000ms, 1875ms total)
T1258 003:943 JLINK_WriteReg(R5, 0x00000000)  returns 0x00 (0000ms, 1875ms total)
T1258 003:943 JLINK_WriteReg(R6, 0x00000000)  returns 0x00 (0000ms, 1875ms total)
T1258 003:943 JLINK_WriteReg(R7, 0x00000000)  returns 0x00 (0000ms, 1875ms total)
T1258 003:943 JLINK_WriteReg(R8, 0x00000000)  returns 0x00 (0000ms, 1875ms total)
T1258 003:943 JLINK_WriteReg(R9, 0x2000017C)  returns 0x00 (0001ms, 1876ms total)
T1258 003:944 JLINK_WriteReg(R10, 0x00000000)  returns 0x00 (0000ms, 1876ms total)
T1258 003:944 JLINK_WriteReg(R11, 0x00000000)  returns 0x00 (0000ms, 1876ms total)
T1258 003:944 JLINK_WriteReg(R12, 0x00000000)  returns 0x00 (0000ms, 1876ms total)
T1258 003:944 JLINK_WriteReg(R13, 0x20000800)  returns 0x00 (0000ms, 1876ms total)
T1258 003:944 JLINK_WriteReg(R14, 0x20000001)  returns 0x00 (0000ms, 1876ms total)
T1258 003:944 JLINK_WriteReg(R15, 0x20000108)  returns 0x00 (0000ms, 1876ms total)
T1258 003:944 JLINK_WriteReg(XPSR, 0x01000000)  returns 0x00 (0000ms, 1876ms total)
T1258 003:944 JLINK_WriteReg(MSP, 0x20000800)  returns 0x00 (0000ms, 1876ms total)
T1258 003:944 JLINK_WriteReg(PSP, 0x20000800)  returns 0x00 (0000ms, 1876ms total)
T1258 003:944 JLINK_WriteReg(CFBP, 0x00000000)  returns 0x00 (0000ms, 1876ms total)
T1258 003:944 JLINK_SetBPEx(Addr = 0x20000000, Type = 0xFFFFFFF2)  returns 0x0000000E (0000ms, 1876ms total)
T1258 003:944 JLINK_Go() (0018ms, 1894ms total)
T1258 003:962 JLINK_IsHalted() -- CPU_ReadMem(2 bytes @ 0x20000000)  returns TRUE (0100ms, 1994ms total)
T1258 004:062 JLINK_ReadReg(R15)  returns 0x20000000 (0000ms, 1894ms total)
T1258 004:062 JLINK_ClrBPEx(BPHandle = 0x0000000E)  returns 0x00 (0000ms, 1894ms total)
T1258 004:062 JLINK_ReadReg(R0)  returns 0x00000000 (0000ms, 1894ms total)
T1258 004:062 JLINK_WriteMem(0x20000180, 0x0400 Bytes, ...) -- Data:  00 24 68 1C 41 08 9E A0 18 F0 06 F9 B4 E7 0F F0 ... -- CPU_WriteMem(1024 bytes @ 0x20000180)  returns 0x400 (0127ms, 2021ms total)
T1258 004:189 JLINK_WriteReg(R0, 0x0800D800)  returns 0x00 (0000ms, 2021ms total)
T1258 004:189 JLINK_WriteReg(R1, 0x00000400)  returns 0x00 (0000ms, 2021ms total)
T1258 004:189 JLINK_WriteReg(R2, 0x20000180)  returns 0x00 (0000ms, 2021ms total)
T1258 004:189 JLINK_WriteReg(R3, 0x00000000)  returns 0x00 (0000ms, 2021ms total)
T1258 004:189 JLINK_WriteReg(R4, 0x00000000)  returns 0x00 (0000ms, 2021ms total)
T1258 004:189 JLINK_WriteReg(R5, 0x00000000)  returns 0x00 (0000ms, 2021ms total)
T1258 004:189 JLINK_WriteReg(R6, 0x00000000)  returns 0x00 (0000ms, 2021ms total)
T1258 004:189 JLINK_WriteReg(R7, 0x00000000)  returns 0x00 (0000ms, 2021ms total)
T1258 004:189 JLINK_WriteReg(R8, 0x00000000)  returns 0x00 (0000ms, 2021ms total)
T1258 004:189 JLINK_WriteReg(R9, 0x2000017C)  returns 0x00 (0000ms, 2021ms total)
T1258 004:189 JLINK_WriteReg(R10, 0x00000000)  returns 0x00 (0000ms, 2021ms total)
T1258 004:189 JLINK_WriteReg(R11, 0x00000000)  returns 0x00 (0001ms, 2022ms total)
T1258 004:190 JLINK_WriteReg(R12, 0x00000000)  returns 0x00 (0000ms, 2022ms total)
T1258 004:190 JLINK_WriteReg(R13, 0x20000800)  returns 0x00 (0000ms, 2022ms total)
T1258 004:190 JLINK_WriteReg(R14, 0x20000001)  returns 0x00 (0000ms, 2022ms total)
T1258 004:190 JLINK_WriteReg(R15, 0x20000108)  returns 0x00 (0000ms, 2022ms total)
T1258 004:190 JLINK_WriteReg(XPSR, 0x01000000)  returns 0x00 (0000ms, 2022ms total)
T1258 004:190 JLINK_WriteReg(MSP, 0x20000800)  returns 0x00 (0000ms, 2022ms total)
T1258 004:190 JLINK_WriteReg(PSP, 0x20000800)  returns 0x00 (0000ms, 2022ms total)
T1258 004:190 JLINK_WriteReg(CFBP, 0x00000000)  returns 0x00 (0000ms, 2022ms total)
T1258 004:190 JLINK_SetBPEx(Addr = 0x20000000, Type = 0xFFFFFFF2)  returns 0x0000000F (0000ms, 2022ms total)
T1258 004:190 JLINK_Go() (0018ms, 2040ms total)
T1258 004:208 JLINK_IsHalted() -- CPU_ReadMem(2 bytes @ 0x20000000)  returns TRUE (0101ms, 2141ms total)
T1258 004:309 JLINK_ReadReg(R15)  returns 0x20000000 (0000ms, 2040ms total)
T1258 004:309 JLINK_ClrBPEx(BPHandle = 0x0000000F)  returns 0x00 (0000ms, 2040ms total)
T1258 004:309 JLINK_ReadReg(R0)  returns 0x00000000 (0000ms, 2040ms total)
T1258 004:309 JLINK_WriteMem(0x20000180, 0x0400 Bytes, ...) -- Data:  07 22 20 46 61 1C CC B2 0D F8 00 20 68 1C C0 F3 ... -- CPU_WriteMem(1024 bytes @ 0x20000180)  returns 0x400 (0127ms, 2167ms total)
T1258 004:436 JLINK_WriteReg(R0, 0x0800DC00)  returns 0x00 (0000ms, 2167ms total)
T1258 004:436 JLINK_WriteReg(R1, 0x00000400)  returns 0x00 (0000ms, 2167ms total)
T1258 004:436 JLINK_WriteReg(R2, 0x20000180)  returns 0x00 (0000ms, 2167ms total)
T1258 004:436 JLINK_WriteReg(R3, 0x00000000)  returns 0x00 (0000ms, 2167ms total)
T1258 004:436 JLINK_WriteReg(R4, 0x00000000)  returns 0x00 (0000ms, 2167ms total)
T1258 004:436 JLINK_WriteReg(R5, 0x00000000)  returns 0x00 (0000ms, 2167ms total)
T1258 004:436 JLINK_WriteReg(R6, 0x00000000)  returns 0x00 (0000ms, 2167ms total)
T1258 004:437 JLINK_WriteReg(R7, 0x00000000)  returns 0x00 (0000ms, 2168ms total)
T1258 004:437 JLINK_WriteReg(R8, 0x00000000)  returns 0x00 (0000ms, 2168ms total)
T1258 004:437 JLINK_WriteReg(R9, 0x2000017C)  returns 0x00 (0000ms, 2168ms total)
T1258 004:437 JLINK_WriteReg(R10, 0x00000000)  returns 0x00 (0000ms, 2168ms total)
T1258 004:437 JLINK_WriteReg(R11, 0x00000000)  returns 0x00 (0000ms, 2168ms total)
T1258 004:437 JLINK_WriteReg(R12, 0x00000000)  returns 0x00 (0000ms, 2168ms total)
T1258 004:437 JLINK_WriteReg(R13, 0x20000800)  returns 0x00 (0000ms, 2168ms total)
T1258 004:437 JLINK_WriteReg(R14, 0x20000001)  returns 0x00 (0000ms, 2168ms total)
T1258 004:437 JLINK_WriteReg(R15, 0x20000108)  returns 0x00 (0000ms, 2168ms total)
T1258 004:437 JLINK_WriteReg(XPSR, 0x01000000)  returns 0x00 (0000ms, 2168ms total)
T1258 004:437 JLINK_WriteReg(MSP, 0x20000800)  returns 0x00 (0000ms, 2168ms total)
T1258 004:437 JLINK_WriteReg(PSP, 0x20000800)  returns 0x00 (0000ms, 2168ms total)
T1258 004:437 JLINK_WriteReg(CFBP, 0x00000000)  returns 0x00 (0000ms, 2168ms total)
T1258 004:437 JLINK_SetBPEx(Addr = 0x20000000, Type = 0xFFFFFFF2)  returns 0x00000010 (0000ms, 2168ms total)
T1258 004:437 JLINK_Go() (0018ms, 2186ms total)
T1258 004:455 JLINK_IsHalted() -- CPU_ReadMem(2 bytes @ 0x20000000)  returns TRUE (0100ms, 2286ms total)
T1258 004:555 JLINK_ReadReg(R15)  returns 0x20000000 (0000ms, 2186ms total)
T1258 004:555 JLINK_ClrBPEx(BPHandle = 0x00000010)  returns 0x00 (0000ms, 2186ms total)
T1258 004:555 JLINK_ReadReg(R0)  returns 0x00000000 (0000ms, 2186ms total)
T1258 004:555 JLINK_WriteMem(0x20000180, 0x0400 Bytes, ...) -- Data:  74 5F 43 68 65 63 6B 5F 45 6C 65 63 3A 20 6D 6F ... -- CPU_WriteMem(1024 bytes @ 0x20000180)  returns 0x400 (0127ms, 2313ms total)
T1258 004:682 JLINK_WriteReg(R0, 0x0800E000)  returns 0x00 (0000ms, 2313ms total)
T1258 004:682 JLINK_WriteReg(R1, 0x00000400)  returns 0x00 (0000ms, 2313ms total)
T1258 004:682 JLINK_WriteReg(R2, 0x20000180)  returns 0x00 (0000ms, 2313ms total)
T1258 004:682 JLINK_WriteReg(R3, 0x00000000)  returns 0x00 (0000ms, 2313ms total)
T1258 004:682 JLINK_WriteReg(R4, 0x00000000)  returns 0x00 (0000ms, 2313ms total)
T1258 004:682 JLINK_WriteReg(R5, 0x00000000)  returns 0x00 (0000ms, 2313ms total)
T1258 004:682 JLINK_WriteReg(R6, 0x00000000)  returns 0x00 (0000ms, 2313ms total)
T1258 004:682 JLINK_WriteReg(R7, 0x00000000)  returns 0x00 (0000ms, 2313ms total)
T1258 004:682 JLINK_WriteReg(R8, 0x00000000)  returns 0x00 (0000ms, 2313ms total)
T1258 004:682 JLINK_WriteReg(R9, 0x2000017C)  returns 0x00 (0001ms, 2314ms total)
T1258 004:683 JLINK_WriteReg(R10, 0x00000000)  returns 0x00 (0000ms, 2314ms total)
T1258 004:683 JLINK_WriteReg(R11, 0x00000000)  returns 0x00 (0000ms, 2314ms total)
T1258 004:683 JLINK_WriteReg(R12, 0x00000000)  returns 0x00 (0000ms, 2314ms total)
T1258 004:683 JLINK_WriteReg(R13, 0x20000800)  returns 0x00 (0000ms, 2314ms total)
T1258 004:683 JLINK_WriteReg(R14, 0x20000001)  returns 0x00 (0000ms, 2314ms total)
T1258 004:683 JLINK_WriteReg(R15, 0x20000108)  returns 0x00 (0000ms, 2314ms total)
T1258 004:683 JLINK_WriteReg(XPSR, 0x01000000)  returns 0x00 (0000ms, 2314ms total)
T1258 004:683 JLINK_WriteReg(MSP, 0x20000800)  returns 0x00 (0000ms, 2314ms total)
T1258 004:683 JLINK_WriteReg(PSP, 0x20000800)  returns 0x00 (0000ms, 2314ms total)
T1258 004:683 JLINK_WriteReg(CFBP, 0x00000000)  returns 0x00 (0000ms, 2314ms total)
T1258 004:683 JLINK_SetBPEx(Addr = 0x20000000, Type = 0xFFFFFFF2)  returns 0x00000011 (0000ms, 2314ms total)
T1258 004:683 JLINK_Go() (0018ms, 2332ms total)
T1258 004:701 JLINK_IsHalted() -- CPU_ReadMem(2 bytes @ 0x20000000)  returns TRUE (0100ms, 2432ms total)
T1258 004:801 JLINK_ReadReg(R15)  returns 0x20000000 (0000ms, 2332ms total)
T1258 004:801 JLINK_ClrBPEx(BPHandle = 0x00000011)  returns 0x00 (0000ms, 2332ms total)
T1258 004:801 JLINK_ReadReg(R0)  returns 0x00000000 (0000ms, 2332ms total)
T1258 004:802 JLINK_WriteMem(0x20000180, 0x0400 Bytes, ...) -- Data:  61 1C CC B2 0D F8 00 20 68 1C 40 08 C0 F3 07 22 ... -- CPU_WriteMem(1024 bytes @ 0x20000180)  returns 0x400 (0126ms, 2458ms total)
T1258 004:928 JLINK_WriteReg(R0, 0x0800E400)  returns 0x00 (0000ms, 2458ms total)
T1258 004:928 JLINK_WriteReg(R1, 0x00000400)  returns 0x00 (0000ms, 2458ms total)
T1258 004:928 JLINK_WriteReg(R2, 0x20000180)  returns 0x00 (0000ms, 2458ms total)
T1258 004:928 JLINK_WriteReg(R3, 0x00000000)  returns 0x00 (0000ms, 2458ms total)
T1258 004:928 JLINK_WriteReg(R4, 0x00000000)  returns 0x00 (0000ms, 2458ms total)
T1258 004:928 JLINK_WriteReg(R5, 0x00000000)  returns 0x00 (0001ms, 2459ms total)
T1258 004:929 JLINK_WriteReg(R6, 0x00000000)  returns 0x00 (0000ms, 2459ms total)
T1258 004:929 JLINK_WriteReg(R7, 0x00000000)  returns 0x00 (0000ms, 2459ms total)
T1258 004:929 JLINK_WriteReg(R8, 0x00000000)  returns 0x00 (0000ms, 2459ms total)
T1258 004:929 JLINK_WriteReg(R9, 0x2000017C)  returns 0x00 (0000ms, 2459ms total)
T1258 004:929 JLINK_WriteReg(R10, 0x00000000)  returns 0x00 (0000ms, 2459ms total)
T1258 004:929 JLINK_WriteReg(R11, 0x00000000)  returns 0x00 (0000ms, 2459ms total)
T1258 004:929 JLINK_WriteReg(R12, 0x00000000)  returns 0x00 (0000ms, 2459ms total)
T1258 004:929 JLINK_WriteReg(R13, 0x20000800)  returns 0x00 (0000ms, 2459ms total)
T1258 004:929 JLINK_WriteReg(R14, 0x20000001)  returns 0x00 (0000ms, 2459ms total)
T1258 004:929 JLINK_WriteReg(R15, 0x20000108)  returns 0x00 (0000ms, 2459ms total)
T1258 004:929 JLINK_WriteReg(XPSR, 0x01000000)  returns 0x00 (0000ms, 2459ms total)
T1258 004:929 JLINK_WriteReg(MSP, 0x20000800)  returns 0x00 (0000ms, 2459ms total)
T1258 004:929 JLINK_WriteReg(PSP, 0x20000800)  returns 0x00 (0000ms, 2459ms total)
T1258 004:929 JLINK_WriteReg(CFBP, 0x00000000)  returns 0x00 (0001ms, 2460ms total)
T1258 004:930 JLINK_SetBPEx(Addr = 0x20000000, Type = 0xFFFFFFF2)  returns 0x00000012 (0000ms, 2460ms total)
T1258 004:930 JLINK_Go() (0017ms, 2477ms total)
T1258 004:947 JLINK_IsHalted() -- CPU_ReadMem(2 bytes @ 0x20000000)  returns TRUE (0100ms, 2577ms total)
T1258 005:047 JLINK_ReadReg(R15)  returns 0x20000000 (0000ms, 2477ms total)
T1258 005:047 JLINK_ClrBPEx(BPHandle = 0x00000012)  returns 0x00 (0000ms, 2477ms total)
T1258 005:047 JLINK_ReadReg(R0)  returns 0x00000000 (0000ms, 2477ms total)
T1258 005:047 JLINK_WriteMem(0x20000180, 0x0400 Bytes, ...) -- Data:  CC B2 0D F8 00 20 01 22 20 46 61 1C CC B2 0D F8 ... -- CPU_WriteMem(1024 bytes @ 0x20000180)  returns 0x400 (0127ms, 2604ms total)
T1258 005:174 JLINK_WriteReg(R0, 0x0800E800)  returns 0x00 (0000ms, 2604ms total)
T1258 005:174 JLINK_WriteReg(R1, 0x00000400)  returns 0x00 (0000ms, 2604ms total)
T1258 005:174 JLINK_WriteReg(R2, 0x20000180)  returns 0x00 (0000ms, 2604ms total)
T1258 005:174 JLINK_WriteReg(R3, 0x00000000)  returns 0x00 (0000ms, 2604ms total)
T1258 005:174 JLINK_WriteReg(R4, 0x00000000)  returns 0x00 (0000ms, 2604ms total)
